time	V(n002)	V(n003)	I(Rload)
0.000000000000000e+000	1.200000e+001	-5.143596e-002	2.542512e-011
9.765624452758720e-014	1.200000e+001	-5.143558e-002	2.541566e-011
1.953124890551744e-013	1.200000e+001	-5.143519e-002	2.540010e-011
3.906249781103488e-013	1.200000e+001	-5.143441e-002	2.534392e-011
7.812499562206976e-013	1.200000e+001	-5.143273e-002	2.512838e-011
1.562499912441395e-012	1.200000e+001	-5.142903e-002	2.427790e-011
3.124999824882790e-012	1.200000e+001	-5.142074e-002	2.088815e-011
6.249999649765581e-012	1.200000e+001	-5.140266e-002	7.233164e-012
1.249999929953116e-011	1.200000e+001	-5.136452e-002	-4.818323e-011
2.499999859906232e-011	1.200000e+001	-5.128608e-002	-2.733276e-010
4.999999719812465e-011	1.200000e+001	-5.112805e-002	-1.179807e-009
9.999999439624929e-011	1.200000e+001	-5.081780e-002	-4.754739e-009
1.999999887924986e-010	1.200002e+001	-5.021963e-002	-1.848829e-008
3.999999775849972e-010	1.200007e+001	-4.905206e-002	-7.008582e-008
7.999999551699943e-010	1.200026e+001	-4.667282e-002	-2.604588e-007
1.599999910339989e-009	1.200094e+001	-4.157556e-002	-9.423483e-007
3.199999820679977e-009	1.200315e+001	-3.033969e-002	-3.149949e-006
5.553763649456844e-009	1.200767e+001	-1.222919e-002	-7.665552e-006
7.394647375875258e-009	1.201201e+001	3.000567e-003	-1.200650e-005
8.528403599667419e-009	1.201503e+001	1.319159e-002	-1.502604e-005
9.189576950284077e-009	1.201695e+001	2.137448e-002	-1.694965e-005
9.542441792624610e-009	1.201817e+001	3.366832e-002	-1.816703e-005
9.737394452517373e-009	1.201908e+001	5.491116e-002	-1.907557e-005
9.805343367732499e-009	1.201956e+001	7.298715e-002	-1.955584e-005
9.869213972913406e-009	1.202019e+001	9.732394e-002	-2.018518e-005
9.908322754037417e-009	1.202065e+001	1.116657e-001	-2.065005e-005
9.921782437751978e-009	1.202083e+001	1.158502e-001	-2.082928e-005
9.948701805181102e-009	1.202121e+001	1.228115e-001	-2.121439e-005
1.000000000000000e-008	1.202198e+001	1.343995e-001	-2.197784e-005
1.000512981948189e-008	1.202206e+001	1.352407e-001	-2.205842e-005
1.001538945844567e-008	1.202222e+001	1.368239e-001	-2.222062e-005
1.003590873637323e-008	1.202255e+001	1.395693e-001	-2.254929e-005
1.007694729222835e-008	1.202322e+001	1.438220e-001	-2.321819e-005
1.015902440393859e-008	1.202458e+001	1.496975e-001	-2.457628e-005
1.029202939068137e-008	1.202679e+001	1.561034e-001	-2.678923e-005
1.043365906279584e-008	1.202913e+001	1.610197e-001	-2.912746e-005
1.063103508979580e-008	1.203232e+001	1.658524e-001	-3.232117e-005
1.079809284481766e-008	1.203494e+001	1.670235e-001	-3.493979e-005
1.089474553089113e-008	1.203638e+001	1.627481e-001	-3.637899e-005
1.095326873002956e-008	1.203719e+001	1.532571e-001	-3.718642e-005
1.097971986376679e-008	1.203752e+001	1.467149e-001	-3.751538e-005
1.100602694071098e-008	1.203782e+001	1.423325e-001	-3.781545e-005
1.102099609371692e-008	1.203798e+001	1.415793e-001	-3.798023e-005
1.103804749795636e-008	1.203817e+001	1.414096e-001	-3.816504e-005
1.107215030643524e-008	1.203853e+001	1.416846e-001	-3.853169e-005
1.110850956760831e-008	1.203892e+001	1.425264e-001	-3.892101e-005
1.118122808995444e-008	1.203970e+001	1.454270e-001	-3.970285e-005
1.127491065634805e-008	1.204076e+001	1.540342e-001	-4.076413e-005
1.142302151591128e-008	1.204269e+001	1.798873e-001	-4.268522e-005
1.157202705580013e-008	1.204502e+001	2.136370e-001	-4.501868e-005
1.169776614749429e-008	1.204741e+001	2.441265e-001	-4.740668e-005
1.184450585341610e-008	1.205076e+001	2.809419e-001	-5.076441e-005
1.208041223391149e-008	1.205743e+001	3.402584e-001	-5.742640e-005
1.255222499490228e-008	1.207426e+001	4.516562e-001	-7.426485e-005
1.338902291377526e-008	1.211085e+001	6.336773e-001	-1.108526e-004
1.423603662688167e-008	1.215462e+001	8.077757e-001	-1.546150e-004
1.557377862418871e-008	1.223328e+001	1.076289e+000	-2.332757e-004
1.730199314429295e-008	1.234497e+001	1.421757e+000	-3.449731e-004
2.013169039451430e-008	1.254062e+001	1.983618e+000	-5.406198e-004
2.385085241259076e-008	1.280497e+001	2.701287e+000	-8.049721e-004
2.951281975212780e-008	1.318272e+001	3.736478e+000	-1.182717e-003
3.348530947685763e-008	1.300310e+001	4.374031e+000	-1.003104e-003
3.593960050601398e-008	1.179190e+001	4.617888e+000	2.081028e-004
3.921821856132211e-008	8.710259e+000	4.716296e+000	3.289741e-003
4.110541831775021e-008	7.017630e+000	4.711667e+000	4.982370e-003
4.350908999344443e-008	5.549529e+000	4.691590e+000	6.450471e-003
4.587736890329413e-008	4.663135e+000	4.678703e+000	7.336866e-003
4.906537449848388e-008	3.926327e+000	4.669960e+000	8.073673e-003
5.247721634323023e-008	3.353314e+000	4.668612e+000	8.646686e-003
5.608513872316694e-008	2.840021e+000	4.670958e+000	9.159979e-003
6.152674134511040e-008	2.114783e+000	4.676558e+000	9.885218e-003
6.921510902534092e-008	1.135054e+000	4.699034e+000	1.086495e-002
7.788479648258739e-008	1.460709e-001	4.784438e+000	1.185393e-002
7.967260133825821e-008	2.918822e-002	4.848713e+000	1.197081e-002
8.026591651974079e-008	2.311932e-002	4.887604e+000	1.197688e-002
8.047403622085732e-008	2.314110e-002	4.902321e+000	1.197686e-002
8.069410120844559e-008	2.199093e-002	4.917158e+000	1.197801e-002
8.094341343274381e-008	2.089107e-002	4.934026e+000	1.197911e-002
8.137745893313971e-008	1.925020e-002	4.963412e+000	1.198075e-002
8.182150209696997e-008	1.783372e-002	4.993439e+000	1.198217e-002
8.258205812599062e-008	1.583863e-002	5.044697e+000	1.198416e-002
8.336147631922368e-008	1.418820e-002	5.096913e+000	1.198581e-002
8.443320232874753e-008	1.240693e-002	5.168066e+000	1.198759e-002
8.559714712232474e-008	1.090660e-002	5.244344e+000	1.198909e-002
8.722338019418172e-008	9.298638e-003	5.349174e+000	1.199070e-002
8.869705325972739e-008	8.194230e-003	5.442025e+000	1.199181e-002
9.116803053250243e-008	6.813524e-003	5.593284e+000	1.199319e-002
9.351215074698572e-008	5.857888e-003	5.730632e+000	1.199414e-002
9.820039117595228e-008	4.525100e-003	5.989015e+000	1.199547e-002
1.026973894756212e-007	3.650522e-003	6.211931e+000	1.199635e-002
1.116913860749591e-007	2.502282e-003	6.580107e+000	1.199750e-002
1.214570110749591e-007	1.528681e-003	6.862529e+000	1.199847e-002
1.275526837298723e-007	8.347027e-004	6.921161e+000	1.199917e-002
1.303511682018887e-007	3.832437e-004	6.879175e+000	1.199962e-002
1.318091852637405e-007	1.797507e-004	6.847383e+000	1.199982e-002
1.323573278335784e-007	1.715347e-004	6.844563e+000	1.199983e-002
1.328019838373011e-007	1.888007e-004	6.846334e+000	1.199981e-002
1.331469387208377e-007	1.961430e-004	6.846705e+000	1.199980e-002
1.333963429841358e-007	1.980679e-004	6.846404e+000	1.199980e-002
1.335473859580822e-007	1.986999e-004	6.846393e+000	1.199980e-002
1.336294831480561e-007	2.007568e-004	6.846272e+000	1.199980e-002
1.336718983729193e-007	2.002459e-004	6.846250e+000	1.199980e-002
1.336976058680655e-007	2.005829e-004	6.846275e+000	1.199980e-002
1.337155921712944e-007	2.009746e-004	6.846251e+000	1.199980e-002
1.337321442017117e-007	2.008874e-004	6.846245e+000	1.199980e-002
1.337492826148058e-007	2.011611e-004	6.846237e+000	1.199980e-002
1.337699504854414e-007	2.013178e-004	6.846227e+000	1.199980e-002
1.338026579281342e-007	2.016403e-004	6.846211e+000	1.199980e-002
1.338603741392801e-007	2.021755e-004	6.846184e+000	1.199980e-002
1.339758065615719e-007	2.032343e-004	6.846128e+000	1.199980e-002
1.342066714061555e-007	2.052523e-004	6.846009e+000	1.199979e-002
1.346684010953226e-007	2.089394e-004	6.845751e+000	1.199979e-002
1.355017222541767e-007	2.147743e-004	6.845237e+000	1.199978e-002
1.364430274997050e-007	2.203139e-004	6.844610e+000	1.199978e-002
1.378395517731722e-007	2.269819e-004	6.843642e+000	1.199977e-002
1.396910944496029e-007	2.339728e-004	6.842369e+000	1.199977e-002
1.423564044301682e-007	2.410780e-004	6.840499e+000	1.199976e-002
1.458703472261566e-007	2.426074e-004	6.836904e+000	1.199976e-002
1.508394997378466e-007	2.248234e-004	6.827087e+000	1.199977e-002
1.555337157235427e-007	1.902261e-004	6.812019e+000	1.199981e-002
1.577596284199354e-007	1.739446e-004	6.803259e+000	1.199983e-002
1.609543223865244e-007	1.606855e-004	6.790732e+000	1.199984e-002
1.643128072300064e-007	1.574994e-004	6.778833e+000	1.199984e-002
1.682548955025817e-007	1.624437e-004	6.766481e+000	1.199984e-002
1.729249017493474e-007	1.726495e-004	6.753472e+000	1.199983e-002
1.777234764631383e-007	1.839082e-004	6.741794e+000	1.199982e-002
1.873206258907201e-007	2.044637e-004	6.721849e+000	1.199980e-002
1.970862508907201e-007	2.220387e-004	6.704861e+000	1.199978e-002
2.068518758907201e-007	2.360767e-004	6.690971e+000	1.199976e-002
2.166175008907201e-007	2.471876e-004	6.679509e+000	1.199975e-002
2.263831258907201e-007	2.559895e-004	6.669943e+000	1.199974e-002
2.361487508907201e-007	2.629915e-004	6.661866e+000	1.199974e-002
2.459143758907201e-007	2.685977e-004	6.654969e+000	1.199973e-002
2.556800008907201e-007	2.731230e-004	6.649011e+000	1.199973e-002
2.654456258907202e-007	2.768097e-004	6.643811e+000	1.199972e-002
2.752112508907202e-007	2.798433e-004	6.639227e+000	1.199972e-002
2.849768758907202e-007	2.823650e-004	6.635148e+000	1.199972e-002
2.947425008907202e-007	2.844826e-004	6.631489e+000	1.199972e-002
3.045081258907203e-007	2.862788e-004	6.628181e+000	1.199971e-002
3.142737508907203e-007	2.878168e-004	6.625171e+000	1.199971e-002
3.240393758907203e-007	2.891460e-004	6.622413e+000	1.199971e-002
3.338050008907203e-007	2.903044e-004	6.619873e+000	1.199971e-002
3.435706258907204e-007	2.913221e-004	6.617522e+000	1.199971e-002
3.533362508907204e-007	2.922230e-004	6.615336e+000	1.199971e-002
3.631018758907204e-007	2.930258e-004	6.613295e+000	1.199971e-002
3.728675008907204e-007	2.937459e-004	6.611382e+000	1.199971e-002
3.826331258907205e-007	2.943955e-004	6.609582e+000	1.199971e-002
3.923987508907205e-007	2.949848e-004	6.607885e+000	1.199970e-002
4.021643758907205e-007	2.955221e-004	6.606279e+000	1.199970e-002
4.119300008907205e-007	2.960140e-004	6.604756e+000	1.199970e-002
4.314612508907206e-007	2.968843e-004	6.601929e+000	1.199970e-002
4.509925008907206e-007	2.976316e-004	6.599352e+000	1.199970e-002
4.705237508907207e-007	2.982815e-004	6.596986e+000	1.199970e-002
4.900550008907207e-007	2.988534e-004	6.594801e+000	1.199970e-002
5.095862508907207e-007	2.993614e-004	6.592772e+000	1.199970e-002
5.388831258907208e-007	3.000272e-004	6.589976e+000	1.199970e-002
5.681800008907209e-007	3.006013e-004	6.587433e+000	1.199970e-002
5.974768758907210e-007	3.011032e-004	6.585102e+000	1.199970e-002
6.267737508907210e-007	3.015472e-004	6.582951e+000	1.199970e-002
6.504902687478639e-007	3.018648e-004	6.581342e+000	1.199970e-002
6.742067866050069e-007	3.021631e-004	6.579804e+000	1.199970e-002
6.979233044621498e-007	3.024423e-004	6.578336e+000	1.199970e-002
7.216398223192927e-007	3.027023e-004	6.576939e+000	1.199970e-002
7.453563401764357e-007	3.029430e-004	6.575612e+000	1.199970e-002
7.690728580335786e-007	3.031645e-004	6.574356e+000	1.199970e-002
7.927893758907215e-007	3.033668e-004	6.573171e+000	1.199970e-002
8.262715187478644e-007	3.036345e-004	6.571578e+000	1.199970e-002
8.597536616050074e-007	3.038868e-004	6.570055e+000	1.199970e-002
8.932358044621503e-007	3.041236e-004	6.568601e+000	1.199970e-002
9.267179473192933e-007	3.043450e-004	6.567218e+000	1.199970e-002
9.602000901764362e-007	3.045510e-004	6.565905e+000	1.199970e-002
9.936822330335791e-007	3.047415e-004	6.564662e+000	1.199969e-002
1.027164375890722e-006	3.049166e-004	6.563488e+000	1.199969e-002
1.075992500890722e-006	3.051562e-004	6.561862e+000	1.199969e-002
1.124820625890722e-006	3.053824e-004	6.560309e+000	1.199969e-002
1.173648750890722e-006	3.055951e-004	6.558828e+000	1.199969e-002
1.222476875890723e-006	3.057945e-004	6.557421e+000	1.199969e-002
1.271305000890723e-006	3.059805e-004	6.556086e+000	1.199969e-002
1.320133125890723e-006	3.061530e-004	6.554825e+000	1.199969e-002
1.368961250890723e-006	3.063121e-004	6.553637e+000	1.199969e-002
1.438715715176437e-006	3.065263e-004	6.552022e+000	1.199969e-002
1.508470179462152e-006	3.067290e-004	6.550480e+000	1.199969e-002
1.578224643747866e-006	3.069204e-004	6.549011e+000	1.199969e-002
1.647979108033581e-006	3.071003e-004	6.547614e+000	1.199969e-002
1.717733572319295e-006	3.072689e-004	6.546289e+000	1.199969e-002
1.787488036605010e-006	3.074260e-004	6.545036e+000	1.199969e-002
1.857242500890724e-006	3.075717e-004	6.543856e+000	1.199969e-002
1.957688929462153e-006	3.077699e-004	6.542240e+000	1.199969e-002
2.058135358033582e-006	3.079579e-004	6.540697e+000	1.199969e-002
2.158581786605011e-006	3.081357e-004	6.539227e+000	1.199969e-002
2.259028215176439e-006	3.083034e-004	6.537830e+000	1.199969e-002
2.359474643747868e-006	3.084610e-004	6.536505e+000	1.199969e-002
2.459921072319297e-006	3.086085e-004	6.535253e+000	1.199969e-002
2.560367500890726e-006	3.087458e-004	6.534073e+000	1.199969e-002
2.704061697319298e-006	3.089317e-004	6.532468e+000	1.199969e-002
2.847755893747870e-006	3.091084e-004	6.530936e+000	1.199969e-002
2.991450090176441e-006	3.092760e-004	6.529475e+000	1.199969e-002
3.135144286605013e-006	3.094345e-004	6.528086e+000	1.199969e-002
3.278838483033585e-006	3.095838e-004	6.526769e+000	1.199969e-002
3.422532679462157e-006	3.097240e-004	6.525524e+000	1.199969e-002
3.566226875890728e-006	3.098550e-004	6.524351e+000	1.199969e-002
3.771085090049196e-006	3.100322e-004	6.522760e+000	1.199969e-002
3.975943304207664e-006	3.102010e-004	6.521240e+000	1.199969e-002
4.180801518366131e-006	3.103613e-004	6.519791e+000	1.199969e-002
4.385659732524598e-006	3.105132e-004	6.518413e+000	1.199969e-002
4.590517946683066e-006	3.106567e-004	6.517106e+000	1.199969e-002
4.795376160841534e-006	3.107918e-004	6.515869e+000	1.199969e-002
5.000234375000001e-006	3.109185e-004	6.514704e+000	1.199969e-002
5.010000000000000e-006	3.109289e-004	6.514642e+000	1.199969e-002
5.010045393347318e-006	3.070835e-004	6.513644e+000	1.199969e-002
5.010136180041951e-006	2.957868e-004	6.511365e+000	1.199970e-002
5.010317753431219e-006	2.672729e-004	6.506458e+000	1.199973e-002
5.010526200304956e-006	2.330303e-004	6.500713e+000	1.199977e-002
5.010715679678657e-006	2.022684e-004	6.495372e+000	1.199980e-002
5.011094638426061e-006	1.406742e-004	6.484135e+000	1.199986e-002
5.011730827885461e-006	3.213256e-005	6.463357e+000	1.199997e-002
5.012038863565366e-006	-3.150961e-005	6.450727e+000	1.200003e-002
5.012236391752150e-006	-8.980532e-005	6.439082e+000	1.200009e-002
5.012406780973227e-006	-1.673699e-004	6.423868e+000	1.200017e-002
5.012588048244016e-006	-2.948622e-004	6.399493e+000	1.200029e-002
5.012774810365616e-006	-4.924972e-004	6.362815e+000	1.200049e-002
5.013015092544702e-006	-8.347930e-004	6.301033e+000	1.200083e-002
5.013236143142701e-006	-1.194341e-003	6.237519e+000	1.200119e-002
5.013470270605123e-006	-1.556460e-003	6.173674e+000	1.200156e-002
5.013731476950056e-006	-1.877000e-003	6.114769e+000	1.200188e-002
5.014076592482571e-006	-2.183095e-003	6.052873e+000	1.200218e-002
5.014463559354940e-006	-2.441760e-003	5.994018e+000	1.200244e-002
5.014946355259438e-006	-2.718613e-003	5.925516e+000	1.200272e-002
5.015541858594350e-006	-3.048480e-003	5.841106e+000	1.200305e-002
5.016632612275691e-006	-3.665412e-003	5.682574e+000	1.200367e-002
5.017842361293086e-006	-4.409578e-003	5.498766e+000	1.200441e-002
5.020000000000000e-006	-5.856695e-003	5.157962e+000	1.200586e-002
5.020215763870692e-006	-5.964184e-003	5.130883e+000	1.200596e-002
5.020647291612075e-006	-6.143022e-003	5.080761e+000	1.200614e-002
5.021510347094841e-006	-6.458989e-003	4.986881e+000	1.200646e-002
5.022680498523584e-006	-6.920585e-003	4.862312e+000	1.200692e-002
5.024020351666083e-006	-7.580206e-003	4.721520e+000	1.200758e-002
5.026700057951083e-006	-9.416471e-003	4.444876e+000	1.200942e-002
5.029468397274893e-006	-1.239942e-002	4.164471e+000	1.201240e-002
5.031756544215750e-006	-1.666833e-002	3.936811e+000	1.201667e-002
5.033488723952578e-006	-2.245994e-002	3.766331e+000	1.202246e-002
5.034816140252022e-006	-3.041404e-002	3.635733e+000	1.203041e-002
5.035879101313681e-006	-4.166902e-002	3.529732e+000	1.204167e-002
5.036766784843711e-006	-5.795345e-002	3.438327e+000	1.205795e-002
5.037510475542967e-006	-8.177792e-002	3.356876e+000	1.208178e-002
5.038258121170617e-006	-1.205824e-001	3.267531e+000	1.212058e-002
5.039027291796087e-006	-1.755189e-001	3.168030e+000	1.217552e-002
5.039966377600136e-006	-2.536160e-001	3.041371e+000	1.225362e-002
5.041039832382519e-006	-3.451554e-001	2.896691e+000	1.234516e-002
5.042612500479403e-006	-4.567138e-001	2.699407e+000	1.245671e-002
5.044609693753095e-006	-5.402816e-001	2.484054e+000	1.254028e-002
5.046469191639698e-006	-5.723176e-001	2.312508e+000	1.257232e-002
5.049213668609856e-006	-5.904274e-001	2.081048e+000	1.259043e-002
5.052129199884443e-006	-6.009495e-001	1.847354e+000	1.260095e-002
5.057960262433617e-006	-6.129015e-001	1.404004e+000	1.261290e-002
5.064662546410260e-006	-6.216470e-001	9.195455e-001	1.262165e-002
5.068735805079622e-006	-6.252392e-001	6.395355e-001	1.262524e-002
5.071458407625133e-006	-6.270502e-001	4.617126e-001	1.262705e-002
5.073192235591122e-006	-6.279983e-001	3.593198e-001	1.262800e-002
5.074518364640863e-006	-6.285756e-001	2.970254e-001	1.262858e-002
5.075998500461853e-006	-6.290511e-001	2.455325e-001	1.262905e-002
5.077511510434665e-006	-6.293537e-001	2.049919e-001	1.262935e-002
5.080128726940016e-006	-6.295545e-001	1.494725e-001	1.262955e-002
5.082886218693385e-006	-6.294429e-001	1.035255e-001	1.262944e-002
5.086184254843959e-006	-6.289406e-001	6.246011e-002	1.262894e-002
5.090098241850426e-006	-6.279944e-001	2.685369e-002	1.262799e-002
5.093609982987762e-006	-6.268981e-001	4.048269e-003	1.262690e-002
5.097028052176820e-006	-6.256485e-001	-1.163623e-002	1.262565e-002
5.100309195817581e-006	-6.243222e-001	-2.244389e-002	1.262432e-002
5.103577147990786e-006	-6.229001e-001	-3.013231e-002	1.262290e-002
5.107361683869893e-006	-6.211571e-001	-3.645334e-002	1.262116e-002
5.110922291388147e-006	-6.194369e-001	-4.058880e-002	1.261944e-002
5.115186095683262e-006	-6.172885e-001	-4.392660e-002	1.261729e-002
5.119384796419641e-006	-6.150863e-001	-4.606363e-002	1.261509e-002
5.125229261291793e-006	-6.118941e-001	-4.787342e-002	1.261189e-002
5.130837509142355e-006	-6.086742e-001	-4.883359e-002	1.260867e-002
5.140603134142355e-006	-6.027136e-001	-4.959274e-002	1.260271e-002
5.149678030221078e-006	-5.967288e-001	-4.984666e-002	1.259673e-002
5.159443655221078e-006	-5.896033e-001	-4.984427e-002	1.258960e-002
5.169209280221078e-006	-5.815147e-001	-4.970646e-002	1.258152e-002
5.178974905221077e-006	-5.719712e-001	-4.945050e-002	1.257197e-002
5.188740530221077e-006	-5.600900e-001	-4.902773e-002	1.256009e-002
5.198506155221076e-006	-5.441833e-001	-4.830758e-002	1.254418e-002
5.208271780221076e-006	-5.213891e-001	-4.708279e-002	1.252139e-002
5.218037405221076e-006	-4.892672e-001	-4.535709e-002	1.248927e-002
5.227803030221075e-006	-4.489819e-001	-4.366383e-002	1.244898e-002
5.237568655221075e-006	-4.045309e-001	-4.259140e-002	1.240453e-002
5.247334280221074e-006	-3.586178e-001	-4.214209e-002	1.235862e-002
5.257099905221074e-006	-3.117694e-001	-4.199510e-002	1.231177e-002
5.266865530221074e-006	-2.638971e-001	-4.195126e-002	1.226390e-002
5.276631155221073e-006	-2.149124e-001	-4.194374e-002	1.221491e-002
5.286396780221073e-006	-1.647549e-001	-4.195487e-002	1.216475e-002
5.296162405221072e-006	-1.133690e-001	-4.198022e-002	1.211337e-002
5.305928030221072e-006	-6.069627e-002	-4.201856e-002	1.206070e-002
5.315693655221072e-006	-6.672606e-003	-4.206929e-002	1.200667e-002
5.325459280221071e-006	4.877090e-002	-4.213198e-002	1.195123e-002
5.335224905221071e-006	1.057076e-001	-4.220613e-002	1.189429e-002
5.344990530221070e-006	1.642135e-001	-4.229125e-002	1.183579e-002
5.354756155221070e-006	2.243666e-001	-4.238670e-002	1.177563e-002
